! Synthetic 10cm cable S-parameters
! Generated for Oscura demonstration
! Length: 10 cm, characteristic impedance: 50 Ohm
! Loss: 0.05 dB/cm @ 1 GHz
# Hz S MA R 50
!
1.000000e+08 0.177828 45.00 0.981961 -18.18 0.981961 -18.18 0.168937 -45.00
1.098541e+08 0.173698 45.00 0.981101 -19.97 0.981101 -19.97 0.165014 -45.00
1.206793e+08 0.169665 45.00 0.980201 -21.94 0.980201 -21.94 0.161182 -45.00
1.325711e+08 0.165725 45.00 0.979259 -24.10 0.979259 -24.10 0.157439 -45.00
1.456348e+08 0.161876 45.00 0.978272 -26.48 0.978272 -26.48 0.153783 -45.00
1.599859e+08 0.158117 45.00 0.977238 -29.09 0.977238 -29.09 0.150212 -45.00
1.757511e+08 0.154446 45.00 0.976156 -31.95 0.976156 -31.95 0.146723 -45.00
1.930698e+08 0.150859 45.00 0.975023 -35.10 0.975023 -35.10 0.143316 -45.00
2.120951e+08 0.147356 45.00 0.973838 -38.56 0.973838 -38.56 0.139988 -45.00
2.329952e+08 0.143934 45.00 0.972596 -42.36 0.972596 -42.36 0.136737 -45.00
2.559548e+08 0.140592 45.00 0.971297 -46.54 0.971297 -46.54 0.133562 -45.00
2.811769e+08 0.137327 45.00 0.969937 -51.12 0.969937 -51.12 0.130460 -45.00
3.088844e+08 0.134138 45.00 0.968513 -56.16 0.968513 -56.16 0.127431 -45.00
3.393222e+08 0.131023 45.00 0.967024 -61.69 0.967024 -61.69 0.124472 -45.00
3.727594e+08 0.127980 45.00 0.965465 -67.77 0.965465 -67.77 0.121581 -45.00
4.094915e+08 0.125008 45.00 0.963834 -74.45 0.963834 -74.45 0.118758 -45.00
4.498433e+08 0.122105 45.00 0.962127 -81.79 0.962127 -81.79 0.116000 -45.00
4.941713e+08 0.119270 45.00 0.960341 -89.85 0.960341 -89.85 0.113306 -45.00
5.428675e+08 0.116500 45.00 0.958474 -98.70 0.958474 -98.70 0.110675 -45.00
5.963623e+08 0.113795 45.00 0.956520 -108.43 0.956520 -108.43 0.108105 -45.00
6.551286e+08 0.111152 45.00 0.954476 -119.11 0.954476 -119.11 0.105595 -45.00
7.196857e+08 0.108571 45.00 0.952339 -130.85 0.952339 -130.85 0.103143 -45.00
7.906043e+08 0.106050 45.00 0.950104 -143.75 0.950104 -143.75 0.100747 -45.00
8.685114e+08 0.103587 45.00 0.947767 -157.91 0.947767 -157.91 0.098408 -45.00
9.540955e+08 0.101182 45.00 0.945324 -173.47 0.945324 -173.47 0.096123 -45.00
1.048113e+09 0.098832 45.00 0.942770 -190.57 0.942770 -190.57 0.093890 -45.00
1.151395e+09 0.096537 45.00 0.940100 -209.34 0.940100 -209.34 0.091710 -45.00
1.264855e+09 0.094295 45.00 0.937311 -229.97 0.937311 -229.97 0.089580 -45.00
1.389495e+09 0.092106 45.00 0.934396 -252.64 0.934396 -252.64 0.087500 -45.00
1.526418e+09 0.089967 45.00 0.931350 -277.53 0.931350 -277.53 0.085468 -45.00
1.676833e+09 0.087877 45.00 0.928169 -304.88 0.928169 -304.88 0.083484 -45.00
1.842070e+09 0.085837 45.00 0.924846 -334.92 0.924846 -334.92 0.081545 -45.00
2.023590e+09 0.083843 45.00 0.921376 -367.93 0.921376 -367.93 0.079651 -45.00
2.222996e+09 0.081896 45.00 0.917753 -404.18 0.917753 -404.18 0.077802 -45.00
2.442053e+09 0.079995 45.00 0.913971 -444.01 0.913971 -444.01 0.075995 -45.00
2.682696e+09 0.078137 45.00 0.910024 -487.76 0.910024 -487.76 0.074230 -45.00
2.947052e+09 0.076323 45.00 0.905905 -535.83 0.905905 -535.83 0.072506 -45.00
3.237458e+09 0.074550 45.00 0.901608 -588.63 0.901608 -588.63 0.070823 -45.00
3.556480e+09 0.072819 45.00 0.897126 -646.63 0.897126 -646.63 0.069178 -45.00
3.906940e+09 0.071128 45.00 0.892452 -710.35 0.892452 -710.35 0.067572 -45.00
4.291934e+09 0.069476 45.00 0.887580 -780.35 0.887580 -780.35 0.066002 -45.00
4.714866e+09 0.067863 45.00 0.882502 -857.25 0.882502 -857.25 0.064470 -45.00
5.179475e+09 0.066287 45.00 0.877211 -941.72 0.877211 -941.72 0.062973 -45.00
5.689866e+09 0.064748 45.00 0.871699 -1034.52 0.871699 -1034.52 0.061510 -45.00
6.250552e+09 0.063244 45.00 0.865959 -1136.46 0.865959 -1136.46 0.060082 -45.00
6.866488e+09 0.061776 45.00 0.859983 -1248.45 0.859983 -1248.45 0.058687 -45.00
7.543120e+09 0.060341 45.00 0.853765 -1371.48 0.853765 -1371.48 0.057324 -45.00
8.286428e+09 0.058940 45.00 0.847295 -1506.62 0.847295 -1506.62 0.055993 -45.00
9.102982e+09 0.057571 45.00 0.840567 -1655.09 0.840567 -1655.09 0.054692 -45.00
1.000000e+10 0.056234 45.00 0.833572 -1818.18 0.833572 -1818.18 0.053422 -45.00
